Time[s], Channel 0, Channel 1, Channel 2, Channel 3, Channel 4, Channel 5, Channel 6, Channel 7
0.000000000000000, 1, 1, 1, 1, 1, 1, 1, 1
2.468126583333333, 1, 1, 0, 1, 1, 1, 1, 1
2.468126666666667, 0, 1, 0, 1, 1, 1, 1, 1
2.497160500000000, 0, 1, 1, 1, 1, 1, 1, 1
2.497160833333333, 0, 0, 1, 1, 1, 1, 1, 1
2.790132916666667, 0, 1, 1, 1, 1, 1, 1, 1
2.790134000000000, 1, 1, 1, 1, 1, 1, 1, 1
2.790134666666667, 0, 1, 1, 1, 1, 1, 1, 1
2.790137000000000, 0, 1, 0, 1, 1, 1, 1, 1
2.790482083333333, 0, 1, 1, 1, 1, 1, 1, 1
2.790482166666667, 0, 0, 1, 1, 1, 1, 1, 1
2.790560083333334, 0, 1, 1, 1, 1, 1, 1, 1
2.790561166666667, 0, 1, 0, 1, 1, 1, 1, 1
2.790586083333333, 0, 1, 1, 1, 1, 1, 1, 1
2.790586166666667, 0, 0, 1, 1, 1, 1, 1, 1
2.790612083333333, 0, 1, 1, 1, 1, 1, 1, 1
2.790613166666667, 0, 1, 0, 1, 1, 1, 1, 1
2.790690083333334, 0, 1, 1, 1, 1, 1, 1, 1
2.790690166666667, 0, 0, 1, 1, 1, 1, 1, 1
2.790716083333333, 0, 1, 1, 1, 1, 1, 1, 1
2.790717166666667, 0, 1, 0, 1, 1, 1, 1, 1
2.790768083333333, 0, 1, 1, 1, 1, 1, 1, 1
2.790768166666667, 0, 0, 1, 1, 1, 1, 1, 1
2.790794083333334, 0, 1, 1, 1, 1, 1, 1, 1
2.790795166666667, 0, 1, 0, 1, 1, 1, 1, 1
2.790820166666667, 0, 0, 1, 1, 1, 1, 1, 1
2.790976166666667, 0, 1, 1, 1, 1, 1, 1, 1
2.790977166666667, 0, 1, 0, 1, 1, 1, 1, 1
2.791054166666667, 0, 1, 1, 1, 1, 1, 1, 1
2.791054250000000, 0, 0, 1, 1, 1, 1, 1, 1
2.791080166666667, 0, 1, 1, 1, 1, 1, 1, 1
2.791081166666667, 0, 1, 0, 1, 1, 1, 1, 1
2.791106166666667, 0, 1, 1, 1, 1, 1, 1, 1
2.791106250000000, 0, 0, 1, 1, 1, 1, 1, 1
2.791132166666667, 0, 1, 1, 1, 1, 1, 1, 1
2.791133250000000, 0, 1, 0, 1, 1, 1, 1, 1
2.791184166666667, 0, 1, 1, 1, 1, 1, 1, 1
2.791184250000000, 0, 0, 1, 1, 1, 1, 1, 1
2.791262166666667, 0, 1, 1, 1, 1, 1, 1, 1
2.791263250000000, 0, 1, 0, 1, 1, 1, 1, 1
2.791340166666667, 0, 1, 1, 1, 1, 1, 1, 1
2.791340250000000, 0, 0, 1, 1, 1, 1, 1, 1
2.791366166666667, 0, 1, 1, 1, 1, 1, 1, 1
2.791367250000000, 0, 1, 0, 1, 1, 1, 1, 1
2.791418166666667, 0, 1, 1, 1, 1, 1, 1, 1
2.791418250000000, 0, 0, 1, 1, 1, 1, 1, 1
2.791548166666667, 0, 1, 1, 1, 1, 1, 1, 1
2.791549250000000, 0, 1, 0, 1, 1, 1, 1, 1
2.791626166666667, 0, 1, 1, 1, 1, 1, 1, 1
2.791626250000000, 0, 0, 1, 1, 1, 1, 1, 1
2.791834166666667, 0, 1, 1, 1, 1, 1, 1, 1
2.791835250000000, 0, 1, 0, 1, 1, 1, 1, 1
2.791912166666667, 0, 1, 1, 1, 1, 1, 1, 1
2.791912250000000, 0, 0, 1, 1, 1, 1, 1, 1
2.791964166666667, 0, 1, 1, 1, 1, 1, 1, 1
2.791965250000000, 0, 1, 0, 1, 1, 1, 1, 1
2.791990250000000, 0, 0, 1, 1, 1, 1, 1, 1
2.792016166666667, 0, 1, 1, 1, 1, 1, 1, 1
2.792017250000000, 0, 1, 0, 1, 1, 1, 1, 1
2.792068250000000, 0, 0, 1, 1, 1, 1, 1, 1
2.792120250000000, 0, 1, 1, 1, 1, 1, 1, 1
2.792121250000000, 0, 1, 0, 1, 1, 1, 1, 1
2.792198250000000, 0, 1, 1, 1, 1, 1, 1, 1
2.792198333333333, 0, 0, 1, 1, 1, 1, 1, 1
2.792224250000000, 0, 1, 1, 1, 1, 1, 1, 1
2.792225333333334, 0, 1, 0, 1, 1, 1, 1, 1
2.792354250000000, 0, 1, 1, 1, 1, 1, 1, 1
2.792354333333333, 0, 0, 1, 1, 1, 1, 1, 1
2.792380250000000, 0, 1, 1, 1, 1, 1, 1, 1
2.792381333333334, 0, 1, 0, 1, 1, 1, 1, 1
2.792484250000000, 0, 1, 1, 1, 1, 1, 1, 1
2.792484333333333, 0, 0, 1, 1, 1, 1, 1, 1
2.792510250000000, 0, 1, 1, 1, 1, 1, 1, 1
2.792511333333334, 0, 1, 0, 1, 1, 1, 1, 1
2.792588250000000, 0, 1, 1, 1, 1, 1, 1, 1
2.792588333333334, 0, 0, 1, 1, 1, 1, 1, 1
2.792640250000000, 0, 1, 1, 1, 1, 1, 1, 1
2.792641333333334, 0, 1, 0, 1, 1, 1, 1, 1
2.792666250000000, 0, 1, 1, 1, 1, 1, 1, 1
2.792666333333333, 0, 0, 1, 1, 1, 1, 1, 1
2.792692250000000, 0, 1, 1, 1, 1, 1, 1, 1
2.792693333333334, 0, 1, 0, 1, 1, 1, 1, 1
2.792770250000000, 0, 1, 1, 1, 1, 1, 1, 1
2.792770333333333, 0, 0, 1, 1, 1, 1, 1, 1
2.792978250000000, 0, 1, 1, 1, 1, 1, 1, 1
2.792979333333334, 0, 1, 0, 1, 1, 1, 1, 1
2.793056333333333, 0, 0, 1, 1, 1, 1, 1, 1
2.793108250000000, 0, 1, 1, 1, 1, 1, 1, 1
2.793109333333334, 0, 1, 0, 1, 1, 1, 1, 1
2.793134333333334, 0, 0, 1, 1, 1, 1, 1, 1
2.793160333333334, 0, 1, 1, 1, 1, 1, 1, 1
2.793161333333333, 0, 1, 0, 1, 1, 1, 1, 1
2.793212333333333, 0, 1, 1, 1, 1, 1, 1, 1
2.793212416666667, 0, 0, 1, 1, 1, 1, 1, 1
2.793238333333333, 0, 1, 1, 1, 1, 1, 1, 1
2.793239333333334, 0, 1, 0, 1, 1, 1, 1, 1
2.793342333333333, 0, 1, 1, 1, 1, 1, 1, 1
2.793342416666667, 0, 0, 1, 1, 1, 1, 1, 1
2.793368333333333, 0, 1, 1, 1, 1, 1, 1, 1
2.793369416666667, 0, 1, 0, 1, 1, 1, 1, 1
2.793472333333333, 0, 1, 1, 1, 1, 1, 1, 1
2.793472416666667, 0, 0, 1, 1, 1, 1, 1, 1
2.793576333333334, 0, 1, 1, 1, 1, 1, 1, 1
2.793577416666667, 0, 1, 0, 1, 1, 1, 1, 1
2.794952666666667, 0, 0, 1, 1, 1, 1, 1, 1
2.794978250000000, 0, 1, 1, 1, 1, 1, 1, 1
2.794979250000000, 0, 1, 0, 1, 1, 1, 1, 1
2.795003833333333, 0, 1, 1, 1, 1, 1, 1, 1
2.795003916666667, 0, 0, 1, 1, 1, 1, 1, 1
2.795029500000000, 0, 1, 1, 1, 1, 1, 1, 1
2.795030500000000, 0, 1, 0, 1, 1, 1, 1, 1
2.795055083333334, 0, 0, 1, 1, 1, 1, 1, 1
2.795183083333333, 0, 1, 1, 1, 1, 1, 1, 1
2.795184083333333, 0, 1, 0, 1, 1, 1, 1, 1
2.795234250000000, 0, 1, 1, 1, 1, 1, 1, 1
2.795234333333334, 0, 0, 1, 1, 1, 1, 1, 1
2.795387916666667, 0, 1, 1, 1, 1, 1, 1, 1
2.795388916666667, 0, 1, 0, 1, 1, 1, 1, 1
2.795413000000000, 0, 0, 1, 1, 1, 1, 1, 1
2.795438583333334, 0, 1, 1, 1, 1, 1, 1, 1
2.795439583333334, 0, 1, 0, 1, 1, 1, 1, 1
2.795515416666667, 0, 0, 1, 1, 1, 1, 1, 1
2.795566583333334, 0, 1, 1, 1, 1, 1, 1, 1
2.795567583333333, 0, 1, 0, 1, 1, 1, 1, 1
2.795592166666667, 0, 1, 1, 1, 1, 1, 1, 1
2.795592250000000, 0, 0, 1, 1, 1, 1, 1, 1
2.795617833333333, 0, 1, 1, 1, 1, 1, 1, 1
2.795618833333334, 0, 1, 0, 1, 1, 1, 1, 1
2.795669000000000, 0, 1, 1, 1, 1, 1, 1, 1
2.795669083333333, 0, 0, 1, 1, 1, 1, 1, 1
2.795694583333333, 0, 1, 1, 1, 1, 1, 1, 1
2.795695583333333, 0, 1, 0, 1, 1, 1, 1, 1
2.796974666666667, 0, 1, 1, 1, 1, 1, 1, 1
2.796974750000000, 0, 0, 1, 1, 1, 1, 1, 1
2.797000333333334, 0, 1, 1, 1, 1, 1, 1, 1
2.797001333333334, 0, 1, 0, 1, 1, 1, 1, 1
2.797102666666667, 0, 1, 1, 1, 1, 1, 1, 1
2.797102750000000, 0, 0, 1, 1, 1, 1, 1, 1
2.797205083333334, 0, 1, 1, 1, 1, 1, 1, 1
2.797206083333334, 0, 1, 0, 1, 1, 1, 1, 1
2.810451583333334, 0, 1, 1, 1, 1, 1, 1, 1
2.810451666666667, 0, 0, 1, 1, 1, 1, 1, 1
2.810607583333334, 0, 1, 1, 1, 1, 1, 1, 1
2.810608666666667, 0, 1, 0, 1, 1, 1, 1, 1
2.810659583333333, 0, 1, 1, 1, 1, 1, 1, 1
2.810659666666667, 0, 0, 1, 1, 1, 1, 1, 1
2.810685583333334, 0, 1, 1, 1, 1, 1, 1, 1
2.810686666666667, 0, 1, 0, 1, 1, 1, 1, 1
2.810737583333334, 0, 1, 1, 1, 1, 1, 1, 1
2.810737666666667, 0, 0, 1, 1, 1, 1, 1, 1
2.810763583333333, 0, 1, 1, 1, 1, 1, 1, 1
2.810764666666667, 0, 1, 0, 1, 1, 1, 1, 1
2.810919666666667, 0, 0, 1, 1, 1, 1, 1, 1
2.810945666666667, 0, 1, 1, 1, 1, 1, 1, 1
2.810946666666667, 0, 1, 0, 1, 1, 1, 1, 1
2.811023666666667, 0, 1, 1, 1, 1, 1, 1, 1
2.811023750000000, 0, 0, 1, 1, 1, 1, 1, 1
2.811205666666667, 0, 1, 1, 1, 1, 1, 1, 1
2.811206750000000, 0, 1, 0, 1, 1, 1, 1, 1
2.811309666666667, 0, 1, 1, 1, 1, 1, 1, 1
2.811309750000000, 0, 0, 1, 1, 1, 1, 1, 1
2.811335666666667, 0, 1, 1, 1, 1, 1, 1, 1
2.811336750000000, 0, 1, 0, 1, 1, 1, 1, 1
2.811595666666667, 0, 1, 1, 1, 1, 1, 1, 1
2.811595750000000, 0, 0, 1, 1, 1, 1, 1, 1
2.811621666666667, 0, 1, 1, 1, 1, 1, 1, 1
2.811622750000000, 0, 1, 0, 1, 1, 1, 1, 1
2.811647666666667, 0, 1, 1, 1, 1, 1, 1, 1
2.811647750000000, 0, 0, 1, 1, 1, 1, 1, 1
2.811751666666667, 0, 1, 1, 1, 1, 1, 1, 1
2.811752750000000, 0, 1, 0, 1, 1, 1, 1, 1
2.811881666666667, 0, 1, 1, 1, 1, 1, 1, 1
2.811881750000000, 0, 0, 1, 1, 1, 1, 1, 1
2.812089750000000, 0, 1, 1, 1, 1, 1, 1, 1
2.812090750000000, 0, 1, 0, 1, 1, 1, 1, 1
2.812167750000000, 0, 1, 1, 1, 1, 1, 1, 1
2.812167833333334, 0, 0, 1, 1, 1, 1, 1, 1
2.812245750000000, 0, 1, 1, 1, 1, 1, 1, 1
2.812246833333333, 0, 1, 0, 1, 1, 1, 1, 1
2.812297750000000, 0, 1, 1, 1, 1, 1, 1, 1
2.812297833333333, 0, 0, 1, 1, 1, 1, 1, 1
2.812375750000000, 0, 1, 1, 1, 1, 1, 1, 1
2.812376833333333, 0, 1, 0, 1, 1, 1, 1, 1
2.812453750000000, 0, 1, 1, 1, 1, 1, 1, 1
2.812453833333334, 0, 0, 1, 1, 1, 1, 1, 1
2.812661750000000, 0, 1, 1, 1, 1, 1, 1, 1
2.812662833333333, 0, 1, 0, 1, 1, 1, 1, 1
2.812739750000000, 0, 1, 1, 1, 1, 1, 1, 1
2.812739833333334, 0, 0, 1, 1, 1, 1, 1, 1
2.812817750000000, 0, 1, 1, 1, 1, 1, 1, 1
2.812818833333333, 0, 1, 0, 1, 1, 1, 1, 1
2.812843750000000, 0, 1, 1, 1, 1, 1, 1, 1
2.812843833333333, 0, 0, 1, 1, 1, 1, 1, 1
2.812869750000000, 0, 1, 1, 1, 1, 1, 1, 1
2.812870833333334, 0, 1, 0, 1, 1, 1, 1, 1
2.812921750000000, 0, 1, 1, 1, 1, 1, 1, 1
2.812921833333334, 0, 0, 1, 1, 1, 1, 1, 1
2.812947750000000, 0, 1, 1, 1, 1, 1, 1, 1
2.812948833333333, 0, 1, 0, 1, 1, 1, 1, 1
2.813025750000000, 0, 1, 1, 1, 1, 1, 1, 1
2.813025833333334, 0, 0, 1, 1, 1, 1, 1, 1
2.813051750000000, 0, 1, 1, 1, 1, 1, 1, 1
2.813052833333333, 0, 1, 0, 1, 1, 1, 1, 1
2.813155833333334, 0, 0, 1, 1, 1, 1, 1, 1
2.813259833333333, 0, 1, 1, 1, 1, 1, 1, 1
2.813260833333334, 0, 1, 0, 1, 1, 1, 1, 1
2.815458416666667, 0, 1, 1, 1, 1, 1, 1, 1
2.815458500000000, 0, 0, 1, 1, 1, 1, 1, 1
2.815484083333334, 0, 1, 1, 1, 1, 1, 1, 1
2.815485083333333, 0, 1, 0, 1, 1, 1, 1, 1
2.815509666666667, 0, 1, 1, 1, 1, 1, 1, 1
2.815509750000000, 0, 0, 1, 1, 1, 1, 1, 1
2.815612083333333, 0, 1, 1, 1, 1, 1, 1, 1
2.815613083333333, 0, 1, 0, 1, 1, 1, 1, 1
2.815663250000000, 0, 1, 1, 1, 1, 1, 1, 1
2.815663333333334, 0, 0, 1, 1, 1, 1, 1, 1
2.815688916666667, 0, 1, 1, 1, 1, 1, 1, 1
2.815689916666667, 0, 1, 0, 1, 1, 1, 1, 1
2.815740083333333, 0, 1, 1, 1, 1, 1, 1, 1
2.815740166666667, 0, 0, 1, 1, 1, 1, 1, 1
2.815944916666667, 0, 1, 1, 1, 1, 1, 1, 1
2.815945916666667, 0, 1, 0, 1, 1, 1, 1, 1
2.816021666666667, 0, 1, 1, 1, 1, 1, 1, 1
2.816021750000000, 0, 0, 1, 1, 1, 1, 1, 1
2.816226500000000, 0, 1, 1, 1, 1, 1, 1, 1
2.816227500000000, 0, 1, 0, 1, 1, 1, 1, 1
2.816303333333333, 0, 1, 1, 1, 1, 1, 1, 1
2.816303416666667, 0, 0, 1, 1, 1, 1, 1, 1
2.816508166666667, 0, 1, 1, 1, 1, 1, 1, 1
2.816509166666667, 0, 1, 0, 1, 1, 1, 1, 1
2.816584916666667, 0, 1, 1, 1, 1, 1, 1, 1
2.816585000000000, 0, 0, 1, 1, 1, 1, 1, 1
2.816789750000000, 0, 1, 1, 1, 1, 1, 1, 1
2.816790750000000, 0, 1, 0, 1, 1, 1, 1, 1
2.816866583333333, 0, 0, 1, 1, 1, 1, 1, 1
2.817071416666667, 0, 1, 1, 1, 1, 1, 1, 1
2.817072416666667, 0, 1, 0, 1, 1, 1, 1, 1
2.817148166666667, 0, 1, 1, 1, 1, 1, 1, 1
2.817148250000000, 0, 0, 1, 1, 1, 1, 1, 1
2.817353000000000, 0, 1, 1, 1, 1, 1, 1, 1
2.817354000000000, 0, 1, 0, 1, 1, 1, 1, 1
2.817429750000000, 0, 1, 1, 1, 1, 1, 1, 1
2.817429833333334, 0, 0, 1, 1, 1, 1, 1, 1
2.817634583333334, 0, 1, 1, 1, 1, 1, 1, 1
2.817635583333333, 0, 1, 0, 1, 1, 1, 1, 1
2.817711416666667, 0, 1, 1, 1, 1, 1, 1, 1
2.817711500000000, 0, 0, 1, 1, 1, 1, 1, 1
2.817762666666667, 0, 1, 1, 1, 1, 1, 1, 1
2.817763666666667, 0, 1, 0, 1, 1, 1, 1, 1
2.817865000000000, 0, 1, 1, 1, 1, 1, 1, 1
2.817865083333333, 0, 0, 1, 1, 1, 1, 1, 1
2.817916250000000, 0, 1, 1, 1, 1, 1, 1, 1
2.817917250000000, 0, 1, 0, 1, 1, 1, 1, 1
2.818556250000000, 0, 1, 1, 1, 1, 1, 1, 1
2.818556333333333, 0, 0, 1, 1, 1, 1, 1, 1
2.818581916666667, 0, 1, 1, 1, 1, 1, 1, 1
2.818582916666667, 0, 1, 0, 1, 1, 1, 1, 1
2.818684250000000, 0, 1, 1, 1, 1, 1, 1, 1
2.818684333333334, 0, 0, 1, 1, 1, 1, 1, 1
2.818786666666667, 0, 1, 1, 1, 1, 1, 1, 1
2.818787666666667, 0, 1, 0, 1, 1, 1, 1, 1
2.830421083333333, 0, 1, 1, 1, 1, 1, 1, 1
2.830421166666667, 0, 0, 1, 1, 1, 1, 1, 1
2.830577083333333, 0, 1, 1, 1, 1, 1, 1, 1
2.830578166666667, 0, 1, 0, 1, 1, 1, 1, 1
2.830629083333334, 0, 1, 1, 1, 1, 1, 1, 1
2.830629166666667, 0, 0, 1, 1, 1, 1, 1, 1
2.830655083333334, 0, 1, 1, 1, 1, 1, 1, 1
2.830656166666667, 0, 1, 0, 1, 1, 1, 1, 1
2.830707083333333, 0, 1, 1, 1, 1, 1, 1, 1
2.830707166666667, 0, 0, 1, 1, 1, 1, 1, 1
2.830733083333334, 0, 1, 1, 1, 1, 1, 1, 1
2.830734166666667, 0, 1, 0, 1, 1, 1, 1, 1
2.830889166666667, 0, 0, 1, 1, 1, 1, 1, 1
2.830915083333334, 0, 1, 1, 1, 1, 1, 1, 1
2.830916166666667, 0, 1, 0, 1, 1, 1, 1, 1
2.830993166666667, 0, 1, 1, 1, 1, 1, 1, 1
2.830993250000000, 0, 0, 1, 1, 1, 1, 1, 1
2.831175166666667, 0, 1, 1, 1, 1, 1, 1, 1
2.831176250000000, 0, 1, 0, 1, 1, 1, 1, 1
2.831279166666667, 0, 1, 1, 1, 1, 1, 1, 1
2.831279250000000, 0, 0, 1, 1, 1, 1, 1, 1
2.831305166666667, 0, 1, 1, 1, 1, 1, 1, 1
2.831306250000000, 0, 1, 0, 1, 1, 1, 1, 1
2.831565166666667, 0, 1, 1, 1, 1, 1, 1, 1
2.831565250000000, 0, 0, 1, 1, 1, 1, 1, 1
2.831591166666667, 0, 1, 1, 1, 1, 1, 1, 1
2.831592250000000, 0, 1, 0, 1, 1, 1, 1, 1
2.831617166666667, 0, 1, 1, 1, 1, 1, 1, 1
2.831617250000000, 0, 0, 1, 1, 1, 1, 1, 1
2.831721166666667, 0, 1, 1, 1, 1, 1, 1, 1
2.831722250000000, 0, 1, 0, 1, 1, 1, 1, 1
2.831851166666667, 0, 1, 1, 1, 1, 1, 1, 1
2.831851250000000, 0, 0, 1, 1, 1, 1, 1, 1
2.832059250000000, 0, 1, 1, 1, 1, 1, 1, 1
2.832060250000000, 0, 1, 0, 1, 1, 1, 1, 1
2.832137250000000, 0, 1, 1, 1, 1, 1, 1, 1
2.832137333333333, 0, 0, 1, 1, 1, 1, 1, 1
2.832215250000000, 0, 1, 1, 1, 1, 1, 1, 1
2.832216250000000, 0, 1, 0, 1, 1, 1, 1, 1
2.832267250000000, 0, 1, 1, 1, 1, 1, 1, 1
2.832267333333334, 0, 0, 1, 1, 1, 1, 1, 1
2.832345250000000, 0, 1, 1, 1, 1, 1, 1, 1
2.832346333333334, 0, 1, 0, 1, 1, 1, 1, 1
2.832423250000000, 0, 1, 1, 1, 1, 1, 1, 1
2.832423333333333, 0, 0, 1, 1, 1, 1, 1, 1
2.832631250000000, 0, 1, 1, 1, 1, 1, 1, 1
2.832632333333334, 0, 1, 0, 1, 1, 1, 1, 1
2.832709250000000, 0, 1, 1, 1, 1, 1, 1, 1
2.832709333333333, 0, 0, 1, 1, 1, 1, 1, 1
2.832787250000000, 0, 1, 1, 1, 1, 1, 1, 1
2.832788333333334, 0, 1, 0, 1, 1, 1, 1, 1
2.832813250000000, 0, 1, 1, 1, 1, 1, 1, 1
2.832813333333334, 0, 0, 1, 1, 1, 1, 1, 1
2.832839250000000, 0, 1, 1, 1, 1, 1, 1, 1
2.832840333333333, 0, 1, 0, 1, 1, 1, 1, 1
2.832891250000000, 0, 1, 1, 1, 1, 1, 1, 1
2.832891333333333, 0, 0, 1, 1, 1, 1, 1, 1
2.832917250000000, 0, 1, 1, 1, 1, 1, 1, 1
2.832918333333334, 0, 1, 0, 1, 1, 1, 1, 1
2.832995250000000, 0, 1, 1, 1, 1, 1, 1, 1
2.832995333333333, 0, 0, 1, 1, 1, 1, 1, 1
2.833021250000000, 0, 1, 1, 1, 1, 1, 1, 1
2.833022333333334, 0, 1, 0, 1, 1, 1, 1, 1
2.833125333333334, 0, 0, 1, 1, 1, 1, 1, 1
2.833229333333334, 0, 1, 1, 1, 1, 1, 1, 1
2.833230333333333, 0, 1, 0, 1, 1, 1, 1, 1
2.835016916666667, 0, 1, 1, 1, 1, 1, 1, 1
2.835017000000000, 0, 0, 1, 1, 1, 1, 1, 1
2.835042500000000, 0, 1, 1, 1, 1, 1, 1, 1
2.835043500000000, 0, 1, 0, 1, 1, 1, 1, 1
2.835068083333334, 0, 1, 1, 1, 1, 1, 1, 1
2.835068166666667, 0, 0, 1, 1, 1, 1, 1, 1
2.835170500000000, 0, 1, 1, 1, 1, 1, 1, 1
2.835171500000000, 0, 1, 0, 1, 1, 1, 1, 1
2.835221750000000, 0, 0, 1, 1, 1, 1, 1, 1
2.835247333333334, 0, 1, 1, 1, 1, 1, 1, 1
2.835248333333333, 0, 1, 0, 1, 1, 1, 1, 1
2.835298500000000, 0, 1, 1, 1, 1, 1, 1, 1
2.835298583333334, 0, 0, 1, 1, 1, 1, 1, 1
2.835503333333333, 0, 1, 1, 1, 1, 1, 1, 1
2.835504333333334, 0, 1, 0, 1, 1, 1, 1, 1
2.835580166666667, 0, 0, 1, 1, 1, 1, 1, 1
2.835759333333333, 0, 1, 1, 1, 1, 1, 1, 1
2.835760416666667, 0, 1, 0, 1, 1, 1, 1, 1
2.835861750000000, 0, 1, 1, 1, 1, 1, 1, 1
2.835861833333333, 0, 0, 1, 1, 1, 1, 1, 1
2.836066583333333, 0, 1, 1, 1, 1, 1, 1, 1
2.836067583333334, 0, 1, 0, 1, 1, 1, 1, 1
2.836143333333334, 0, 1, 1, 1, 1, 1, 1, 1
2.836143416666667, 0, 0, 1, 1, 1, 1, 1, 1
2.836348250000000, 0, 1, 1, 1, 1, 1, 1, 1
2.836349250000000, 0, 1, 0, 1, 1, 1, 1, 1
2.836425000000000, 0, 1, 1, 1, 1, 1, 1, 1
2.836425083333333, 0, 0, 1, 1, 1, 1, 1, 1
2.836629833333333, 0, 1, 1, 1, 1, 1, 1, 1
2.836630833333333, 0, 1, 0, 1, 1, 1, 1, 1
2.836706583333334, 0, 1, 1, 1, 1, 1, 1, 1
2.836706666666667, 0, 0, 1, 1, 1, 1, 1, 1
2.836910833333333, 0, 1, 1, 1, 1, 1, 1, 1
2.836911833333334, 0, 1, 0, 1, 1, 1, 1, 1
2.836987583333333, 0, 1, 1, 1, 1, 1, 1, 1
2.836987666666667, 0, 0, 1, 1, 1, 1, 1, 1
2.837192416666667, 0, 1, 1, 1, 1, 1, 1, 1
2.837193416666667, 0, 1, 0, 1, 1, 1, 1, 1
2.837269166666667, 0, 1, 1, 1, 1, 1, 1, 1
2.837269250000000, 0, 0, 1, 1, 1, 1, 1, 1
2.837320416666667, 0, 1, 1, 1, 1, 1, 1, 1
2.837321416666667, 0, 1, 0, 1, 1, 1, 1, 1
2.837422833333334, 0, 1, 1, 1, 1, 1, 1, 1
2.837422916666667, 0, 0, 1, 1, 1, 1, 1, 1
2.837448416666667, 0, 1, 1, 1, 1, 1, 1, 1
2.837449416666667, 0, 1, 0, 1, 1, 1, 1, 1
2.837960416666667, 0, 1, 1, 1, 1, 1, 1, 1
2.837960500000000, 0, 0, 1, 1, 1, 1, 1, 1
2.838011666666667, 0, 1, 1, 1, 1, 1, 1, 1
2.838012666666667, 0, 1, 0, 1, 1, 1, 1, 1
2.838037250000000, 0, 1, 1, 1, 1, 1, 1, 1
2.838037333333333, 0, 0, 1, 1, 1, 1, 1, 1
2.838062833333333, 0, 1, 1, 1, 1, 1, 1, 1
2.838063916666667, 0, 1, 0, 1, 1, 1, 1, 1
2.838114083333334, 0, 0, 1, 1, 1, 1, 1, 1
2.838190916666667, 0, 1, 1, 1, 1, 1, 1, 1
2.838191916666667, 0, 1, 0, 1, 1, 1, 1, 1
2.838242083333334, 0, 1, 1, 1, 1, 1, 1, 1
2.838242166666667, 0, 0, 1, 1, 1, 1, 1, 1
2.838267666666667, 0, 1, 1, 1, 1, 1, 1, 1
2.838268666666667, 0, 1, 0, 1, 1, 1, 1, 1
2.838293250000000, 0, 1, 1, 1, 1, 1, 1, 1
2.838293333333334, 0, 0, 1, 1, 1, 1, 1, 1
2.838318916666667, 0, 1, 1, 1, 1, 1, 1, 1
2.838319916666667, 0, 1, 0, 1, 1, 1, 1, 1
2.838344500000000, 0, 0, 1, 1, 1, 1, 1, 1
2.838446916666667, 0, 1, 1, 1, 1, 1, 1, 1
2.838447916666667, 0, 1, 0, 1, 1, 1, 1, 1
2.838523666666667, 0, 1, 1, 1, 1, 1, 1, 1
2.838523750000000, 0, 0, 1, 1, 1, 1, 1, 1
2.838549333333333, 0, 1, 1, 1, 1, 1, 1, 1
2.838550333333334, 0, 1, 0, 1, 1, 1, 1, 1
2.838626083333334, 0, 1, 1, 1, 1, 1, 1, 1
2.838626166666667, 0, 0, 1, 1, 1, 1, 1, 1
2.838677333333333, 0, 1, 1, 1, 1, 1, 1, 1
2.838678333333334, 0, 1, 0, 1, 1, 1, 1, 1
2.838702916666667, 0, 1, 1, 1, 1, 1, 1, 1
2.838703000000000, 0, 0, 1, 1, 1, 1, 1, 1
2.838728500000000, 0, 1, 1, 1, 1, 1, 1, 1
2.838729500000000, 0, 1, 0, 1, 1, 1, 1, 1
2.838805333333334, 0, 0, 1, 1, 1, 1, 1, 1
2.838830916666667, 0, 1, 1, 1, 1, 1, 1, 1
2.838831916666667, 0, 1, 0, 1, 1, 1, 1, 1
2.838856500000000, 0, 1, 1, 1, 1, 1, 1, 1
2.838856583333333, 0, 0, 1, 1, 1, 1, 1, 1
2.838907750000000, 0, 1, 1, 1, 1, 1, 1, 1
2.838908750000000, 0, 1, 0, 1, 1, 1, 1, 1
2.838984500000000, 0, 1, 1, 1, 1, 1, 1, 1
2.838984583333334, 0, 0, 1, 1, 1, 1, 1, 1
2.839010166666667, 0, 1, 1, 1, 1, 1, 1, 1
2.839011166666667, 0, 1, 0, 1, 1, 1, 1, 1
2.840008583333334, 0, 1, 1, 1, 1, 1, 1, 1
2.840008666666667, 0, 0, 1, 1, 1, 1, 1, 1
2.840034166666667, 0, 1, 1, 1, 1, 1, 1, 1
2.840035166666667, 0, 1, 0, 1, 1, 1, 1, 1
2.840136583333333, 0, 1, 1, 1, 1, 1, 1, 1
2.840136666666667, 0, 0, 1, 1, 1, 1, 1, 1
2.840239000000000, 0, 1, 1, 1, 1, 1, 1, 1
2.840240000000000, 0, 1, 0, 1, 1, 1, 1, 1
2.850390583333334, 0, 1, 1, 1, 1, 1, 1, 1
2.850390666666667, 0, 0, 1, 1, 1, 1, 1, 1
2.850546583333334, 0, 1, 1, 1, 1, 1, 1, 1
2.850547666666667, 0, 1, 0, 1, 1, 1, 1, 1
2.850598583333333, 0, 1, 1, 1, 1, 1, 1, 1
2.850598666666667, 0, 0, 1, 1, 1, 1, 1, 1
2.850624583333333, 0, 1, 1, 1, 1, 1, 1, 1
2.850625666666667, 0, 1, 0, 1, 1, 1, 1, 1
2.850676583333334, 0, 1, 1, 1, 1, 1, 1, 1
2.850676666666667, 0, 0, 1, 1, 1, 1, 1, 1
2.850702583333334, 0, 1, 1, 1, 1, 1, 1, 1
2.850703666666667, 0, 1, 0, 1, 1, 1, 1, 1
2.850858666666667, 0, 0, 1, 1, 1, 1, 1, 1
2.850884583333333, 0, 1, 1, 1, 1, 1, 1, 1
2.850885666666667, 0, 1, 0, 1, 1, 1, 1, 1
2.850962666666667, 0, 0, 1, 1, 1, 1, 1, 1
2.851144666666667, 0, 1, 1, 1, 1, 1, 1, 1
2.851145750000000, 0, 1, 0, 1, 1, 1, 1, 1
2.851248666666667, 0, 1, 1, 1, 1, 1, 1, 1
2.851248750000000, 0, 0, 1, 1, 1, 1, 1, 1
2.851274666666667, 0, 1, 1, 1, 1, 1, 1, 1
2.851275750000000, 0, 1, 0, 1, 1, 1, 1, 1
2.851534666666667, 0, 1, 1, 1, 1, 1, 1, 1
2.851534750000000, 0, 0, 1, 1, 1, 1, 1, 1
2.851560666666667, 0, 1, 1, 1, 1, 1, 1, 1
2.851561750000000, 0, 1, 0, 1, 1, 1, 1, 1
2.851586666666667, 0, 1, 1, 1, 1, 1, 1, 1
2.851586750000000, 0, 0, 1, 1, 1, 1, 1, 1
2.851690666666667, 0, 1, 1, 1, 1, 1, 1, 1
2.851691750000000, 0, 1, 0, 1, 1, 1, 1, 1
2.851820666666667, 0, 1, 1, 1, 1, 1, 1, 1
2.851820750000000, 0, 0, 1, 1, 1, 1, 1, 1
2.852028666666667, 0, 1, 1, 1, 1, 1, 1, 1
2.852029750000000, 0, 1, 0, 1, 1, 1, 1, 1
2.852106750000000, 0, 0, 1, 1, 1, 1, 1, 1
2.852184750000000, 0, 1, 1, 1, 1, 1, 1, 1
2.852185750000000, 0, 1, 0, 1, 1, 1, 1, 1
2.852236750000000, 0, 1, 1, 1, 1, 1, 1, 1
2.852236833333333, 0, 0, 1, 1, 1, 1, 1, 1
2.852314750000000, 0, 1, 1, 1, 1, 1, 1, 1
2.852315833333333, 0, 1, 0, 1, 1, 1, 1, 1
2.852392750000000, 0, 1, 1, 1, 1, 1, 1, 1
2.852392833333333, 0, 0, 1, 1, 1, 1, 1, 1
2.852600750000000, 0, 1, 1, 1, 1, 1, 1, 1
2.852601833333333, 0, 1, 0, 1, 1, 1, 1, 1
2.852678750000000, 0, 1, 1, 1, 1, 1, 1, 1
2.852678833333333, 0, 0, 1, 1, 1, 1, 1, 1
